
T1872C 569:437 SEGGER J-Link V6.20 Log File (0000ms, 0005ms total)
T1872C 569:437 DLL Compiled: Sep  8 2017 18:04:35 (0000ms, 0005ms total)
T1872C 569:437 Logging started @ 2018-02-10 21:55 (0000ms, 0005ms total)
T1872C 569:437 JLINK_SetWarnOutHandler(...) (0000ms, 0005ms total)
T1872C 569:437 JLINK_OpenEx(...)
Firmware: J-Link V9 compiled Sep  8 2017 17:24:53
Hardware: V9.40
S/N: 36410082
Feature(s): RDI, GDB, FlashDL, FlashBP, JFlash
TELNET listener socket opened on port 19021WEBSRV 
Webserver running on local port 19080  returns O.K. (0019ms, 0024ms total)
T1872C 569:456 JLINK_GetEmuCaps()  returns 0xB9FF7BBF (0001ms, 0025ms total)
T1872C 569:457 JLINK_TIF_GetAvailable(...) (0000ms, 0025ms total)
T1872C 569:457 JLINK_SetErrorOutHandler(...) (0000ms, 0025ms total)
T1872C 569:457 JLINK_ExecCommand("ProjectFile = "E:\1000NXP0001\KEA\×ÔÉí±Ê¼Ç\GitHub_KEA\KEA_Car\Code\MDK-ARM\JLinkSettings.ini"", ...).   returns 0x00 (0169ms, 0194ms total)
T1872C 569:629 JLINK_ExecCommand("Device = SKEAZ128xxx4", ...). Device "SKEAZ128XXX4" selected.  returns 0x00 (0008ms, 0202ms total)
T1872C 569:637 JLINK_ExecCommand("DisableConnectionTimeout", ...).   returns 0x01 (0000ms, 0202ms total)
T1872C 569:637 JLINK_GetHardwareVersion()  returns 0x16F30 (0000ms, 0202ms total)
T1872C 569:637 JLINK_GetDLLVersion()  returns 62000 (0000ms, 0202ms total)
T1872C 569:637 JLINK_GetFirmwareString(...) (0000ms, 0202ms total)
T1872C 569:646 JLINK_GetDLLVersion()  returns 62000 (0000ms, 0202ms total)
T1872C 569:646 JLINK_GetCompileDateTime() (0000ms, 0202ms total)
T1872C 569:653 JLINK_GetFirmwareString(...) (0000ms, 0202ms total)
T1872C 569:659 JLINK_GetHardwareVersion()  returns 0x16F30 (0000ms, 0202ms total)
T1872C 569:685 JLINK_TIF_Select(JLINKARM_TIF_SWD)  returns 0x00 (0001ms, 0203ms total)
T1872C 569:686 JLINK_SetSpeed(5000) (0000ms, 0203ms total)
T1872C 569:686 JLINK_GetId()InitTarget() >0x10B TIF>Found SW-DP with ID 0x0BC11477 >0x0D TIF> >0x28 TIF> >0x0D TIF> >0x28 TIF> >0x0D TIF> >0x28 TIF> >0x0D TIF> >0x28 TIF> >0x0D TIF> >0x21 TIF> >0x0D TIF> >0x28 TIF>Scanning AP map to find all available APs >0x0D TIF> >0x28 TIF> >0x0D TIF> >0x21 TIF> >0x0D TIF> >0x21 TIF> >0x0D TIF> >0x28 TIF> >0x0D TIF> >0x21 TIF> >0x0D TIF> >0x21 TIF> >0x0D TIF> >0x28 TIF> >0x0D TIF> >0x21 TIF> >0x0D TIF> >0x21 TIF>AP[2]: Stopped AP scan as end of AP map has been reached
AP[0]: AHB-AP (IDR: 0x04770031)AP[1]: JTAG-AP (IDR: 0x001C0020)Iterating through AP map to find AHB-AP to use >0x42 TIF> >0x28 TIF> >0x0D TIF> >0x21 TIF> >0x0D TIF> >0x21 TIF> >0x42 TIF> >0x28 TIF> >0x0D TIF> >0x28 TIF> >0x0D TIF> >0x28 TIF> >0x0D TIF> >0x21 TIF> >0x0D TIF> >0x21 TIF>AP[0]: Core foundAP[0]: AHB-AP ROM base: 0xF0002000 >0x0D TIF> >0x28 TIF> >0x0D TIF> >0x28 TIF> >0x0D TIF> >0x28 TIF> >0x0D TIF> >0x21 TIF> >0x0D TIF> >0x21 TIF>CPUID register: 0x410CC600. Implementer code: 0x41 (ARM)
Found Cortex-M0 r0p0, Little endian. -- CPU_ReadMem(4 bytes @ 0xE000EDF0) -- CPU_WriteMem(4 bytes @ 0xE000EDF0) -- CPU_ReadMem(4 bytes @ 0xE0002000)FPUnit: 2 code (BP) slots and 0 literal slots -- CPU_ReadMem(4 bytes @ 0xE000EDFC) -- CPU_WriteMem(4 bytes @ 0xE000EDFC) -- CPU_ReadMem(4 bytes @ 0xE0001000) -- CPU_WriteMem(4 bytes @ 0xE0001000)CoreSight components:ROMTbl[0] @ F0002000 -- CPU_ReadMem(16 bytes @ 0xF0002000) -- CPU_ReadMem(16 bytes @ 0xE00FFFF0) -- CPU_ReadMem(16 bytes @ 0xE00FFFE0)
ROMTbl[0][0]: E00FF000, CID: B105100D, PID: 000BB4C0 ROM TableROMTbl[1] @ E00FF000 -- CPU_ReadMem(16 bytes @ 0xE00FF000) -- CPU_ReadMem(16 bytes @ 0xE000EFF0) -- CPU_ReadMem(16 bytes @ 0xE000EFE0)ROMTbl[1][0]: E000E000, CID: B105E00D, PID: 000BB008 SCS -- CPU_ReadMem(16 bytes @ 0xE0001FF0) -- CPU_ReadMem(16 bytes @ 0xE0001FE0)ROMTbl[1][1]: E0001000, CID: B105E00D, PID: 000BB00A DWT -- CPU_ReadMem(16 bytes @ 0xE0002FF0) -- CPU_ReadMem(16 bytes @ 0xE0002FE0)
ROMTbl[1][2]: E0002000, CID: B105E00D, PID: 000BB00B FPB >0x0D TIF> >0x21 TIF>  returns 0x0BC11477 (0224ms, 0427ms total)
T1872C 569:910 JLINK_GetDLLVersion()  returns 62000 (0000ms, 0427ms total)
T1872C 569:910 JLINK_CORE_GetFound()  returns 0x60000FF (0000ms, 0427ms total)
T1872C 569:910 JLINK_GetDebugInfo(0x100 = JLINKARM_ROM_TABLE_ADDR_INDEX) -- Value=0xF0002000  returns 0x00 (0000ms, 0427ms total)
T1872C 569:914 JLINK_GetDebugInfo(0x100 = JLINKARM_ROM_TABLE_ADDR_INDEX) -- Value=0xF0002000  returns 0x00 (0000ms, 0427ms total)
T1872C 569:914 JLINK_GetDebugInfo(0x101 = JLINKARM_DEBUG_INFO_ETM_ADDR_INDEX) -- Value=0x00000000  returns 0x00 (0000ms, 0427ms total)
T1872C 569:914 JLINK_ReadMemEx(0xE0041FF0, 0x0010 Bytes, ..., Flags = 0x02000004) -- CPU_ReadMem(16 bytes @ 0xE0041FF0) - Data: 00 00 00 00 00 00 00 00 00 00 00 00 00 00 00 00  returns 0x10 (0000ms, 0427ms total)
T1872C 569:914 JLINK_GetDebugInfo(0x102 = JLINKARM_DEBUG_INFO_MTB_ADDR_INDEX) -- Value=0x00000000  returns 0x00 (0000ms, 0427ms total)
T1872C 569:914 JLINK_GetDebugInfo(0x103 = JLINKARM_DEBUG_INFO_TPIU_ADDR_INDEX) -- Value=0x00000000  returns 0x00 (0000ms, 0427ms total)
T1872C 569:914 JLINK_ReadMemEx(0xE0040FF0, 0x0010 Bytes, ..., Flags = 0x02000004) -- CPU_ReadMem(16 bytes @ 0xE0040FF0) - Data: 00 00 00 00 00 00 00 00 00 00 00 00 00 00 00 00  returns 0x10 (0001ms, 0428ms total)
T1872C 569:915 JLINK_GetDebugInfo(0x104 = JLINKARM_DEBUG_INFO_ITM_ADDR_INDEX) -- Value=0xE0000000  returns 0x00 (0000ms, 0428ms total)
T1872C 569:915 JLINK_GetDebugInfo(0x105 = JLINKARM_DEBUG_INFO_DWT_ADDR_INDEX) -- Value=0xE0001000  returns 0x00 (0000ms, 0428ms total)
T1872C 569:915 JLINK_GetDebugInfo(0x106 = JLINKARM_DEBUG_INFO_FPB_ADDR_INDEX) -- Value=0xE0002000  returns 0x00 (0000ms, 0428ms total)
T1872C 569:915 JLINK_GetDebugInfo(0x107 = JLINKARM_DEBUG_INFO_NVIC_ADDR_INDEX) -- Value=0xE000E000  returns 0x00 (0000ms, 0428ms total)
T1872C 569:915 JLINK_GetDebugInfo(0x10C = JLINKARM_DEBUG_INFO_DBG_ADDR_INDEX) -- Value=0xE000EDF0  returns 0x00 (0000ms, 0428ms total)
T1872C 569:915 JLINK_ReadMemU32(0xE000ED00, 0x0001 Items, ...) -- CPU_ReadMem(4 bytes @ 0xE000ED00) - Data: 00 C6 0C 41  returns 0x01 (0000ms, 0428ms total)
T1872C 569:915 JLINK_GetDebugInfo(0x10F = JLINKARM_DEBUG_INFO_HAS_CORTEX_M_SECURITY_EXT_INDEX) -- Value=0x00000000  returns 0x00 (0000ms, 0428ms total)
T1872C 569:915 JLINK_SetResetType(JLINKARM_CM3_RESET_TYPE_NORMAL)  returns JLINKARM_CM3_RESET_TYPE_NORMAL (0000ms, 0428ms total)
T1872C 569:915 JLINK_Reset()Executing ResetTarget() -- CPU_ReadMem(4 bytes @ 0xE000EDFC) -- CPU_WriteMem(4 bytes @ 0xE000EDFC) -- CPU_WriteMem(4 bytes @ 0xE000ED0C) -- CPU_ReadMem(4 bytes @ 0xE000EDF0) -- CPU_ReadMem(4 bytes @ 0xE000EDF0) -- CPU_WriteMem(4 bytes @ 0xE000EDFC)AfterResetTarget() -- CPU_WriteMem(4 bytes @ 0xE0002000) -- CPU_ReadMem(4 bytes @ 0xE000EDFC) -- CPU_ReadMem(4 bytes @ 0xE0001000) -- CPU_WriteMem(4 bytes @ 0xE0001000) (0022ms, 0450ms total)
T1872C 569:937 JLINK_Halt()  returns 0x00 (0000ms, 0450ms total)
T1872C 569:937 JLINK_ReadMemU32(0xE000EDF0, 0x0001 Items, ...) -- CPU_ReadMem(4 bytes @ 0xE000EDF0) - Data: 03 00 03 00  returns 0x01 (0000ms, 0450ms total)
T1872C 569:937 JLINK_WriteU32(0xE000EDF0, 0xA05F0003) -- CPU_WriteMem(4 bytes @ 0xE000EDF0)  returns 0x00 (0001ms, 0451ms total)
T1872C 569:938 JLINK_WriteU32(0xE000EDFC, 0x01000000) -- CPU_WriteMem(4 bytes @ 0xE000EDFC)  returns 0x00 (0000ms, 0451ms total)
T1872C 569:950 JLINK_GetHWStatus(...)  returns 0x00 (0001ms, 0452ms total)
T1872C 569:958 JLINK_GetNumBPUnits(Type = 0xFFFFFF00)  returns 0x02 (0000ms, 0452ms total)
T1872C 569:958 JLINK_GetNumBPUnits(Type = 0xF0)  returns 0x2000 (0000ms, 0452ms total)
T1872C 569:958 JLINK_GetNumWPUnits()  returns 0x02 (0000ms, 0452ms total)
T1872C 569:966 JLINK_GetSpeed()  returns 0xFA0 (0000ms, 0452ms total)
T1872C 569:971 JLINK_ReadMemU32(0xE000E004, 0x0001 Items, ...) -- CPU_ReadMem(4 bytes @ 0xE000E004) - Data: 00 00 00 00  returns 0x01 (0001ms, 0453ms total)
T1872C 569:972 JLINK_Halt()  returns 0x00 (0000ms, 0453ms total)
T1872C 569:972 JLINK_IsHalted()  returns TRUE (0000ms, 0453ms total)
T1872C 569:974 JLINK_WriteMem(0x1FFFF000, 0x01AC Bytes, ...) - Data: 00 BE 0A E0 0D 78 2D 06 68 40 08 24 40 00 00 D3 ... -- CPU_WriteMem(428 bytes @ 0x1FFFF000)  returns 0x1AC (0002ms, 0455ms total)
T1872C 569:976 JLINK_WriteReg(R0, 0x00000000)  returns 0x00 (0000ms, 0455ms total)
T1872C 569:976 JLINK_WriteReg(R1, 0x00B71B00)  returns 0x00 (0000ms, 0455ms total)
T1872C 569:976 JLINK_WriteReg(R2, 0x00000001)  returns 0x00 (0000ms, 0455ms total)
T1872C 569:976 JLINK_WriteReg(R3, 0x00000000)  returns 0x00 (0000ms, 0455ms total)
T1872C 569:976 JLINK_WriteReg(R4, 0x00000000)  returns 0x00 (0000ms, 0455ms total)
T1872C 569:976 JLINK_WriteReg(R5, 0x00000000)  returns 0x00 (0000ms, 0455ms total)
T1872C 569:976 JLINK_WriteReg(R6, 0x00000000)  returns 0x00 (0000ms, 0455ms total)
T1872C 569:976 JLINK_WriteReg(R7, 0x00000000)  returns 0x00 (0000ms, 0455ms total)
T1872C 569:976 JLINK_WriteReg(R8, 0x00000000)  returns 0x00 (0000ms, 0455ms total)
T1872C 569:976 JLINK_WriteReg(R9, 0x1FFFF1A8)  returns 0x00 (0000ms, 0455ms total)
T1872C 569:976 JLINK_WriteReg(R10, 0x00000000)  returns 0x00 (0000ms, 0455ms total)
T1872C 569:976 JLINK_WriteReg(R11, 0x00000000)  returns 0x00 (0000ms, 0455ms total)
T1872C 569:977 JLINK_WriteReg(R12, 0x00000000)  returns 0x00 (0000ms, 0455ms total)
T1872C 569:977 JLINK_WriteReg(R13 (SP), 0x20000000)  returns 0x00 (0000ms, 0455ms total)
T1872C 569:977 JLINK_WriteReg(R14, 0x1FFFF001)  returns 0x00 (0000ms, 0455ms total)
T1872C 569:977 JLINK_WriteReg(R15 (PC), 0x1FFFF038)  returns 0x00 (0000ms, 0455ms total)
T1872C 569:977 JLINK_WriteReg(XPSR, 0x01000000)  returns 0x00 (0000ms, 0455ms total)
T1872C 569:977 JLINK_WriteReg(MSP, 0x20000000)  returns 0x00 (0000ms, 0455ms total)
T1872C 569:977 JLINK_WriteReg(PSP, 0x20000000)  returns 0x00 (0000ms, 0455ms total)
T1872C 569:977 JLINK_WriteReg(CFBP, 0x00000000)  returns 0x00 (0000ms, 0455ms total)
T1872C 569:977 JLINK_SetBPEx(Addr = 0x1FFFF000, Type = 0xFFFFFFF2)  returns 0x00000001 (0000ms, 0455ms total)
T1872C 569:977 JLINK_Go() -- CPU_WriteMem(4 bytes @ 0xE0002000) -- CPU_ReadMem(4 bytes @ 0xE0001000) -- CPU_WriteMem(4 bytes @ 0xE0001000) -- CPU_WriteMem(4 bytes @ 0xE0002008) -- CPU_WriteMem(4 bytes @ 0xE000200C) -- CPU_WriteMem(4 bytes @ 0xE0001004) (0003ms, 0458ms total)
T1872C 569:980 JLINK_IsHalted()  returns TRUE (0001ms, 0459ms total)
T1872C 569:981 JLINK_ReadReg(R15 (PC))  returns 0x1FFFF000 (0000ms, 0458ms total)
T1872C 569:981 JLINK_ClrBPEx(BPHandle = 0x00000001)  returns 0x00 (0000ms, 0458ms total)
T1872C 569:981 JLINK_ReadReg(R0)  returns 0x00000000 (0000ms, 0458ms total)
T1872C 569:982 JLINK_WriteReg(R0, 0x00000000)  returns 0x00 (0000ms, 0458ms total)
T1872C 569:982 JLINK_WriteReg(R1, 0x00B71B00)  returns 0x00 (0000ms, 0458ms total)
T1872C 569:982 JLINK_WriteReg(R2, 0x00000001)  returns 0x00 (0000ms, 0458ms total)
T1872C 569:982 JLINK_WriteReg(R3, 0x00000000)  returns 0x00 (0000ms, 0458ms total)
T1872C 569:982 JLINK_WriteReg(R4, 0x00000000)  returns 0x00 (0000ms, 0458ms total)
T1872C 569:982 JLINK_WriteReg(R5, 0x00000000)  returns 0x00 (0000ms, 0458ms total)
T1872C 569:982 JLINK_WriteReg(R6, 0x00000000)  returns 0x00 (0000ms, 0458ms total)
T1872C 569:982 JLINK_WriteReg(R7, 0x00000000)  returns 0x00 (0000ms, 0458ms total)
T1872C 569:982 JLINK_WriteReg(R8, 0x00000000)  returns 0x00 (0000ms, 0458ms total)
T1872C 569:982 JLINK_WriteReg(R9, 0x1FFFF1A8)  returns 0x00 (0000ms, 0458ms total)
T1872C 569:982 JLINK_WriteReg(R10, 0x00000000)  returns 0x00 (0000ms, 0458ms total)
T1872C 569:982 JLINK_WriteReg(R11, 0x00000000)  returns 0x00 (0000ms, 0458ms total)
T1872C 569:982 JLINK_WriteReg(R12, 0x00000000)  returns 0x00 (0000ms, 0458ms total)
T1872C 569:982 JLINK_WriteReg(R13 (SP), 0x20000000)  returns 0x00 (0000ms, 0458ms total)
T1872C 569:982 JLINK_WriteReg(R14, 0x1FFFF001)  returns 0x00 (0000ms, 0458ms total)
T1872C 569:982 JLINK_WriteReg(R15 (PC), 0x1FFFF06C)  returns 0x00 (0000ms, 0458ms total)
T1872C 569:982 JLINK_WriteReg(XPSR, 0x01000000)  returns 0x00 (0000ms, 0458ms total)
T1872C 569:982 JLINK_WriteReg(MSP, 0x20000000)  returns 0x00 (0000ms, 0458ms total)
T1872C 569:982 JLINK_WriteReg(PSP, 0x20000000)  returns 0x00 (0000ms, 0458ms total)
T1872C 569:982 JLINK_WriteReg(CFBP, 0x00000000)  returns 0x00 (0000ms, 0458ms total)
T1872C 569:982 JLINK_SetBPEx(Addr = 0x1FFFF000, Type = 0xFFFFFFF2)  returns 0x00000002 (0000ms, 0458ms total)
T1872C 569:982 JLINK_Go() -- CPU_WriteMem(4 bytes @ 0xE0002000) -- CPU_ReadMem(4 bytes @ 0xE0001000) -- CPU_WriteMem(4 bytes @ 0xE0001000) (0002ms, 0460ms total)
T1872C 569:984 JLINK_IsHalted()  returns FALSE (0000ms, 0460ms total)
T1872C 570:065 JLINK_IsHalted()  returns FALSE (0000ms, 0460ms total)
T1872C 570:145 JLINK_IsHalted()  returns TRUE (0001ms, 0461ms total)
T1872C 570:146 JLINK_ReadReg(R15 (PC))  returns 0x1FFFF000 (0000ms, 0460ms total)
T1872C 570:146 JLINK_ClrBPEx(BPHandle = 0x00000002)  returns 0x00 (0000ms, 0460ms total)
T1872C 570:146 JLINK_ReadReg(R0)  returns 0x00000000 (0000ms, 0460ms total)
T1872C 570:198 JLINK_WriteReg(R0, 0x00000001)  returns 0x00 (0000ms, 0460ms total)
T1872C 570:198 JLINK_WriteReg(R1, 0x00B71B00)  returns 0x00 (0000ms, 0460ms total)
T1872C 570:198 JLINK_WriteReg(R2, 0x00000001)  returns 0x00 (0000ms, 0460ms total)
T1872C 570:198 JLINK_WriteReg(R3, 0x00000000)  returns 0x00 (0000ms, 0460ms total)
T1872C 570:198 JLINK_WriteReg(R4, 0x00000000)  returns 0x00 (0000ms, 0460ms total)
T1872C 570:198 JLINK_WriteReg(R5, 0x00000000)  returns 0x00 (0000ms, 0460ms total)
T1872C 570:198 JLINK_WriteReg(R6, 0x00000000)  returns 0x00 (0000ms, 0460ms total)
T1872C 570:198 JLINK_WriteReg(R7, 0x00000000)  returns 0x00 (0000ms, 0460ms total)
T1872C 570:198 JLINK_WriteReg(R8, 0x00000000)  returns 0x00 (0000ms, 0460ms total)
T1872C 570:198 JLINK_WriteReg(R9, 0x1FFFF1A8)  returns 0x00 (0000ms, 0460ms total)
T1872C 570:198 JLINK_WriteReg(R10, 0x00000000)  returns 0x00 (0000ms, 0460ms total)
T1872C 570:198 JLINK_WriteReg(R11, 0x00000000)  returns 0x00 (0000ms, 0460ms total)
T1872C 570:198 JLINK_WriteReg(R12, 0x00000000)  returns 0x00 (0000ms, 0460ms total)
T1872C 570:198 JLINK_WriteReg(R13 (SP), 0x20000000)  returns 0x00 (0000ms, 0460ms total)
T1872C 570:198 JLINK_WriteReg(R14, 0x1FFFF001)  returns 0x00 (0000ms, 0460ms total)
T1872C 570:198 JLINK_WriteReg(R15 (PC), 0x1FFFF068)  returns 0x00 (0000ms, 0460ms total)
T1872C 570:198 JLINK_WriteReg(XPSR, 0x01000000)  returns 0x00 (0000ms, 0460ms total)
T1872C 570:198 JLINK_WriteReg(MSP, 0x20000000)  returns 0x00 (0000ms, 0460ms total)
T1872C 570:198 JLINK_WriteReg(PSP, 0x20000000)  returns 0x00 (0000ms, 0460ms total)
T1872C 570:198 JLINK_WriteReg(CFBP, 0x00000000)  returns 0x00 (0000ms, 0460ms total)
T1872C 570:198 JLINK_SetBPEx(Addr = 0x1FFFF000, Type = 0xFFFFFFF2)  returns 0x00000003 (0000ms, 0460ms total)
T1872C 570:198 JLINK_Go() -- CPU_WriteMem(4 bytes @ 0xE0002000) -- CPU_ReadMem(4 bytes @ 0xE0001000) -- CPU_WriteMem(4 bytes @ 0xE0001000) (0002ms, 0462ms total)
T1872C 570:200 JLINK_IsHalted()  returns TRUE (0002ms, 0464ms total)
T1872C 570:202 JLINK_ReadReg(R15 (PC))  returns 0x1FFFF000 (0000ms, 0462ms total)
T1872C 570:202 JLINK_ClrBPEx(BPHandle = 0x00000003)  returns 0x00 (0000ms, 0462ms total)
T1872C 570:202 JLINK_ReadReg(R0)  returns 0x00000000 (0000ms, 0462ms total)
T1872C 570:208 JLINK_WriteMem(0x1FFFF000, 0x01AC Bytes, ...) - Data: 00 BE 0A E0 0D 78 2D 06 68 40 08 24 40 00 00 D3 ... -- CPU_WriteMem(428 bytes @ 0x1FFFF000)  returns 0x1AC (0002ms, 0464ms total)
T1872C 570:210 JLINK_WriteReg(R0, 0x00000000)  returns 0x00 (0000ms, 0464ms total)
T1872C 570:210 JLINK_WriteReg(R1, 0x00B71B00)  returns 0x00 (0000ms, 0464ms total)
T1872C 570:210 JLINK_WriteReg(R2, 0x00000002)  returns 0x00 (0000ms, 0464ms total)
T1872C 570:210 JLINK_WriteReg(R3, 0x00000000)  returns 0x00 (0000ms, 0464ms total)
T1872C 570:210 JLINK_WriteReg(R4, 0x00000000)  returns 0x00 (0000ms, 0464ms total)
T1872C 570:210 JLINK_WriteReg(R5, 0x00000000)  returns 0x00 (0000ms, 0464ms total)
T1872C 570:210 JLINK_WriteReg(R6, 0x00000000)  returns 0x00 (0000ms, 0464ms total)
T1872C 570:210 JLINK_WriteReg(R7, 0x00000000)  returns 0x00 (0000ms, 0464ms total)
T1872C 570:210 JLINK_WriteReg(R8, 0x00000000)  returns 0x00 (0000ms, 0464ms total)
T1872C 570:210 JLINK_WriteReg(R9, 0x1FFFF1A8)  returns 0x00 (0000ms, 0464ms total)
T1872C 570:210 JLINK_WriteReg(R10, 0x00000000)  returns 0x00 (0000ms, 0464ms total)
T1872C 570:210 JLINK_WriteReg(R11, 0x00000000)  returns 0x00 (0000ms, 0464ms total)
T1872C 570:210 JLINK_WriteReg(R12, 0x00000000)  returns 0x00 (0000ms, 0464ms total)
T1872C 570:210 JLINK_WriteReg(R13 (SP), 0x20000000)  returns 0x00 (0000ms, 0464ms total)
T1872C 570:210 JLINK_WriteReg(R14, 0x1FFFF001)  returns 0x00 (0000ms, 0464ms total)
T1872C 570:210 JLINK_WriteReg(R15 (PC), 0x1FFFF038)  returns 0x00 (0000ms, 0464ms total)
T1872C 570:210 JLINK_WriteReg(XPSR, 0x01000000)  returns 0x00 (0000ms, 0464ms total)
T1872C 570:210 JLINK_WriteReg(MSP, 0x20000000)  returns 0x00 (0000ms, 0464ms total)
T1872C 570:210 JLINK_WriteReg(PSP, 0x20000000)  returns 0x00 (0000ms, 0464ms total)
T1872C 570:210 JLINK_WriteReg(CFBP, 0x00000000)  returns 0x00 (0000ms, 0464ms total)
T1872C 570:210 JLINK_SetBPEx(Addr = 0x1FFFF000, Type = 0xFFFFFFF2)  returns 0x00000004 (0000ms, 0464ms total)
T1872C 570:210 JLINK_Go() -- CPU_WriteMem(4 bytes @ 0xE0002000) -- CPU_ReadMem(4 bytes @ 0xE0001000) -- CPU_WriteMem(4 bytes @ 0xE0001000) (0002ms, 0466ms total)
T1872C 570:212 JLINK_IsHalted()  returns TRUE (0001ms, 0467ms total)
T1872C 570:213 JLINK_ReadReg(R15 (PC))  returns 0x1FFFF000 (0001ms, 0467ms total)
T1872C 570:214 JLINK_ClrBPEx(BPHandle = 0x00000004)  returns 0x00 (0000ms, 0467ms total)
T1872C 570:214 JLINK_ReadReg(R0)  returns 0x00000000 (0000ms, 0467ms total)
T1872C 570:214 JLINK_WriteMem(0x1FFFF1AC, 0x0100 Bytes, ...) - Data: 60 06 00 20 D7 00 00 00 E3 00 00 00 E5 00 00 00 ... -- CPU_WriteMem(256 bytes @ 0x1FFFF1AC)  returns 0x100 (0001ms, 0468ms total)
T1872C 570:215 JLINK_WriteReg(R0, 0x00000000)  returns 0x00 (0000ms, 0468ms total)
T1872C 570:215 JLINK_WriteReg(R1, 0x00000100)  returns 0x00 (0000ms, 0468ms total)
T1872C 570:215 JLINK_WriteReg(R2, 0x1FFFF1AC)  returns 0x00 (0000ms, 0468ms total)
T1872C 570:215 JLINK_WriteReg(R3, 0x00000000)  returns 0x00 (0000ms, 0468ms total)
T1872C 570:215 JLINK_WriteReg(R4, 0x00000000)  returns 0x00 (0000ms, 0468ms total)
T1872C 570:215 JLINK_WriteReg(R5, 0x00000000)  returns 0x00 (0000ms, 0468ms total)
T1872C 570:215 JLINK_WriteReg(R6, 0x00000000)  returns 0x00 (0000ms, 0468ms total)
T1872C 570:215 JLINK_WriteReg(R7, 0x00000000)  returns 0x00 (0000ms, 0468ms total)
T1872C 570:215 JLINK_WriteReg(R8, 0x00000000)  returns 0x00 (0000ms, 0468ms total)
T1872C 570:215 JLINK_WriteReg(R9, 0x1FFFF1A8)  returns 0x00 (0000ms, 0468ms total)
T1872C 570:215 JLINK_WriteReg(R10, 0x00000000)  returns 0x00 (0000ms, 0468ms total)
T1872C 570:215 JLINK_WriteReg(R11, 0x00000000)  returns 0x00 (0000ms, 0468ms total)
T1872C 570:215 JLINK_WriteReg(R12, 0x00000000)  returns 0x00 (0000ms, 0468ms total)
T1872C 570:215 JLINK_WriteReg(R13 (SP), 0x20000000)  returns 0x00 (0000ms, 0468ms total)
T1872C 570:215 JLINK_WriteReg(R14, 0x1FFFF001)  returns 0x00 (0000ms, 0468ms total)
T1872C 570:215 JLINK_WriteReg(R15 (PC), 0x1FFFF118)  returns 0x00 (0000ms, 0468ms total)
T1872C 570:215 JLINK_WriteReg(XPSR, 0x01000000)  returns 0x00 (0000ms, 0468ms total)
T1872C 570:215 JLINK_WriteReg(MSP, 0x20000000)  returns 0x00 (0000ms, 0468ms total)
T1872C 570:215 JLINK_WriteReg(PSP, 0x20000000)  returns 0x00 (0000ms, 0468ms total)
T1872C 570:215 JLINK_WriteReg(CFBP, 0x00000000)  returns 0x00 (0000ms, 0468ms total)
T1872C 570:215 JLINK_SetBPEx(Addr = 0x1FFFF000, Type = 0xFFFFFFF2)  returns 0x00000005 (0000ms, 0468ms total)
T1872C 570:215 JLINK_Go() -- CPU_WriteMem(4 bytes @ 0xE0002000) -- CPU_ReadMem(4 bytes @ 0xE0001000) -- CPU_WriteMem(4 bytes @ 0xE0001000) (0002ms, 0470ms total)
T1872C 570:217 JLINK_IsHalted()  returns FALSE (0000ms, 0470ms total)
T1872C 570:288 JLINK_IsHalted()  returns TRUE (0001ms, 0471ms total)
T1872C 570:289 JLINK_ReadReg(R15 (PC))  returns 0x1FFFF000 (0000ms, 0470ms total)
T1872C 570:289 JLINK_ClrBPEx(BPHandle = 0x00000005)  returns 0x00 (0000ms, 0470ms total)
T1872C 570:289 JLINK_ReadReg(R0)  returns 0x00000000 (0000ms, 0470ms total)
T1872C 570:290 JLINK_WriteMem(0x1FFFF1AC, 0x0100 Bytes, ...) - Data: 01 46 00 20 20 22 01 24 09 E0 0D 46 D5 40 9D 42 ... -- CPU_WriteMem(256 bytes @ 0x1FFFF1AC)  returns 0x100 (0001ms, 0471ms total)
T1872C 570:291 JLINK_WriteReg(R0, 0x00000100)  returns 0x00 (0000ms, 0471ms total)
T1872C 570:291 JLINK_WriteReg(R1, 0x00000100)  returns 0x00 (0000ms, 0471ms total)
T1872C 570:291 JLINK_WriteReg(R2, 0x1FFFF1AC)  returns 0x00 (0000ms, 0471ms total)
T1872C 570:291 JLINK_WriteReg(R3, 0x00000000)  returns 0x00 (0000ms, 0471ms total)
T1872C 570:291 JLINK_WriteReg(R4, 0x00000000)  returns 0x00 (0000ms, 0471ms total)
T1872C 570:291 JLINK_WriteReg(R5, 0x00000000)  returns 0x00 (0000ms, 0471ms total)
T1872C 570:291 JLINK_WriteReg(R6, 0x00000000)  returns 0x00 (0001ms, 0472ms total)
T1872C 570:292 JLINK_WriteReg(R7, 0x00000000)  returns 0x00 (0000ms, 0472ms total)
T1872C 570:292 JLINK_WriteReg(R8, 0x00000000)  returns 0x00 (0000ms, 0472ms total)
T1872C 570:292 JLINK_WriteReg(R9, 0x1FFFF1A8)  returns 0x00 (0000ms, 0472ms total)
T1872C 570:292 JLINK_WriteReg(R10, 0x00000000)  returns 0x00 (0000ms, 0472ms total)
T1872C 570:292 JLINK_WriteReg(R11, 0x00000000)  returns 0x00 (0000ms, 0472ms total)
T1872C 570:292 JLINK_WriteReg(R12, 0x00000000)  returns 0x00 (0000ms, 0472ms total)
T1872C 570:292 JLINK_WriteReg(R13 (SP), 0x20000000)  returns 0x00 (0000ms, 0472ms total)
T1872C 570:292 JLINK_WriteReg(R14, 0x1FFFF001)  returns 0x00 (0000ms, 0472ms total)
T1872C 570:292 JLINK_WriteReg(R15 (PC), 0x1FFFF118)  returns 0x00 (0000ms, 0472ms total)
T1872C 570:292 JLINK_WriteReg(XPSR, 0x01000000)  returns 0x00 (0000ms, 0472ms total)
T1872C 570:292 JLINK_WriteReg(MSP, 0x20000000)  returns 0x00 (0000ms, 0472ms total)
T1872C 570:292 JLINK_WriteReg(PSP, 0x20000000)  returns 0x00 (0000ms, 0472ms total)
T1872C 570:292 JLINK_WriteReg(CFBP, 0x00000000)  returns 0x00 (0000ms, 0472ms total)
T1872C 570:292 JLINK_SetBPEx(Addr = 0x1FFFF000, Type = 0xFFFFFFF2)  returns 0x00000006 (0000ms, 0472ms total)
T1872C 570:292 JLINK_Go() -- CPU_WriteMem(4 bytes @ 0xE0002000) -- CPU_ReadMem(4 bytes @ 0xE0001000) -- CPU_WriteMem(4 bytes @ 0xE0001000) (0002ms, 0474ms total)
T1872C 570:294 JLINK_IsHalted()  returns FALSE (0000ms, 0474ms total)
T1872C 570:364 JLINK_IsHalted()  returns TRUE (0001ms, 0475ms total)
T1872C 570:365 JLINK_ReadReg(R15 (PC))  returns 0x1FFFF000 (0000ms, 0474ms total)
T1872C 570:365 JLINK_ClrBPEx(BPHandle = 0x00000006)  returns 0x00 (0000ms, 0474ms total)
T1872C 570:365 JLINK_ReadReg(R0)  returns 0x00000000 (0000ms, 0474ms total)
T1872C 570:366 JLINK_WriteMem(0x1FFFF1AC, 0x0100 Bytes, ...) - Data: DA 05 80 1A 01 23 40 00 1B 06 C0 18 80 18 5A 42 ... -- CPU_WriteMem(256 bytes @ 0x1FFFF1AC)  returns 0x100 (0001ms, 0475ms total)
T1872C 570:367 JLINK_WriteReg(R0, 0x00000200)  returns 0x00 (0000ms, 0475ms total)
T1872C 570:367 JLINK_WriteReg(R1, 0x00000100)  returns 0x00 (0000ms, 0475ms total)
T1872C 570:367 JLINK_WriteReg(R2, 0x1FFFF1AC)  returns 0x00 (0001ms, 0476ms total)
T1872C 570:368 JLINK_WriteReg(R3, 0x00000000)  returns 0x00 (0000ms, 0476ms total)
T1872C 570:368 JLINK_WriteReg(R4, 0x00000000)  returns 0x00 (0000ms, 0476ms total)
T1872C 570:368 JLINK_WriteReg(R5, 0x00000000)  returns 0x00 (0000ms, 0476ms total)
T1872C 570:368 JLINK_WriteReg(R6, 0x00000000)  returns 0x00 (0000ms, 0476ms total)
T1872C 570:368 JLINK_WriteReg(R7, 0x00000000)  returns 0x00 (0000ms, 0476ms total)
T1872C 570:368 JLINK_WriteReg(R8, 0x00000000)  returns 0x00 (0000ms, 0476ms total)
T1872C 570:368 JLINK_WriteReg(R9, 0x1FFFF1A8)  returns 0x00 (0000ms, 0476ms total)
T1872C 570:368 JLINK_WriteReg(R10, 0x00000000)  returns 0x00 (0000ms, 0476ms total)
T1872C 570:368 JLINK_WriteReg(R11, 0x00000000)  returns 0x00 (0000ms, 0476ms total)
T1872C 570:368 JLINK_WriteReg(R12, 0x00000000)  returns 0x00 (0000ms, 0476ms total)
T1872C 570:368 JLINK_WriteReg(R13 (SP), 0x20000000)  returns 0x00 (0000ms, 0476ms total)
T1872C 570:368 JLINK_WriteReg(R14, 0x1FFFF001)  returns 0x00 (0000ms, 0476ms total)
T1872C 570:368 JLINK_WriteReg(R15 (PC), 0x1FFFF118)  returns 0x00 (0000ms, 0476ms total)
T1872C 570:368 JLINK_WriteReg(XPSR, 0x01000000)  returns 0x00 (0000ms, 0476ms total)
T1872C 570:368 JLINK_WriteReg(MSP, 0x20000000)  returns 0x00 (0000ms, 0476ms total)
T1872C 570:368 JLINK_WriteReg(PSP, 0x20000000)  returns 0x00 (0000ms, 0476ms total)
T1872C 570:368 JLINK_WriteReg(CFBP, 0x00000000)  returns 0x00 (0000ms, 0476ms total)
T1872C 570:368 JLINK_SetBPEx(Addr = 0x1FFFF000, Type = 0xFFFFFFF2)  returns 0x00000007 (0000ms, 0476ms total)
T1872C 570:368 JLINK_Go() -- CPU_WriteMem(4 bytes @ 0xE0002000) -- CPU_ReadMem(4 bytes @ 0xE0001000) -- CPU_WriteMem(4 bytes @ 0xE0001000) (0002ms, 0478ms total)
T1872C 570:370 JLINK_IsHalted()  returns FALSE (0000ms, 0478ms total)
T1872C 570:422 JLINK_IsHalted()  returns TRUE (0001ms, 0479ms total)
T1872C 570:423 JLINK_ReadReg(R15 (PC))  returns 0x1FFFF000 (0000ms, 0478ms total)
T1872C 570:423 JLINK_ClrBPEx(BPHandle = 0x00000007)  returns 0x00 (0000ms, 0478ms total)
T1872C 570:423 JLINK_ReadReg(R0)  returns 0x00000000 (0000ms, 0478ms total)
T1872C 570:424 JLINK_WriteMem(0x1FFFF1AC, 0x0100 Bytes, ...) - Data: 00 2C 01 DA 00 20 70 BD 00 23 91 42 01 D3 89 1A ... -- CPU_WriteMem(256 bytes @ 0x1FFFF1AC)  returns 0x100 (0001ms, 0479ms total)
T1872C 570:425 JLINK_WriteReg(R0, 0x00000300)  returns 0x00 (0000ms, 0479ms total)
T1872C 570:425 JLINK_WriteReg(R1, 0x00000100)  returns 0x00 (0000ms, 0479ms total)
T1872C 570:425 JLINK_WriteReg(R2, 0x1FFFF1AC)  returns 0x00 (0000ms, 0479ms total)
T1872C 570:425 JLINK_WriteReg(R3, 0x00000000)  returns 0x00 (0000ms, 0479ms total)
T1872C 570:425 JLINK_WriteReg(R4, 0x00000000)  returns 0x00 (0000ms, 0479ms total)
T1872C 570:425 JLINK_WriteReg(R5, 0x00000000)  returns 0x00 (0000ms, 0479ms total)
T1872C 570:425 JLINK_WriteReg(R6, 0x00000000)  returns 0x00 (0000ms, 0479ms total)
T1872C 570:425 JLINK_WriteReg(R7, 0x00000000)  returns 0x00 (0000ms, 0479ms total)
T1872C 570:425 JLINK_WriteReg(R8, 0x00000000)  returns 0x00 (0000ms, 0479ms total)
T1872C 570:425 JLINK_WriteReg(R9, 0x1FFFF1A8)  returns 0x00 (0000ms, 0479ms total)
T1872C 570:425 JLINK_WriteReg(R10, 0x00000000)  returns 0x00 (0000ms, 0479ms total)
T1872C 570:425 JLINK_WriteReg(R11, 0x00000000)  returns 0x00 (0000ms, 0479ms total)
T1872C 570:425 JLINK_WriteReg(R12, 0x00000000)  returns 0x00 (0000ms, 0479ms total)
T1872C 570:426 JLINK_WriteReg(R13 (SP), 0x20000000)  returns 0x00 (0000ms, 0480ms total)
T1872C 570:426 JLINK_WriteReg(R14, 0x1FFFF001)  returns 0x00 (0000ms, 0480ms total)
T1872C 570:426 JLINK_WriteReg(R15 (PC), 0x1FFFF118)  returns 0x00 (0000ms, 0480ms total)
T1872C 570:426 JLINK_WriteReg(XPSR, 0x01000000)  returns 0x00 (0000ms, 0480ms total)
T1872C 570:426 JLINK_WriteReg(MSP, 0x20000000)  returns 0x00 (0000ms, 0480ms total)
T1872C 570:426 JLINK_WriteReg(PSP, 0x20000000)  returns 0x00 (0000ms, 0480ms total)
T1872C 570:426 JLINK_WriteReg(CFBP, 0x00000000)  returns 0x00 (0000ms, 0480ms total)
T1872C 570:426 JLINK_SetBPEx(Addr = 0x1FFFF000, Type = 0xFFFFFFF2)  returns 0x00000008 (0000ms, 0480ms total)
T1872C 570:426 JLINK_Go() -- CPU_WriteMem(4 bytes @ 0xE0002000) -- CPU_ReadMem(4 bytes @ 0xE0001000) -- CPU_WriteMem(4 bytes @ 0xE0001000) (0001ms, 0481ms total)
T1872C 570:427 JLINK_IsHalted()  returns FALSE (0000ms, 0481ms total)
T1872C 570:453 JLINK_IsHalted()  returns TRUE (0001ms, 0482ms total)
T1872C 570:454 JLINK_ReadReg(R15 (PC))  returns 0x1FFFF000 (0000ms, 0481ms total)
T1872C 570:454 JLINK_ClrBPEx(BPHandle = 0x00000008)  returns 0x00 (0000ms, 0481ms total)
T1872C 570:454 JLINK_ReadReg(R0)  returns 0x00000000 (0000ms, 0481ms total)
T1872C 570:455 JLINK_WriteMem(0x1FFFF1AC, 0x0100 Bytes, ...) - Data: FF FF FF FF FF FF FF FF FF FF FF FF FF FF FE FE ... -- CPU_WriteMem(256 bytes @ 0x1FFFF1AC)  returns 0x100 (0001ms, 0482ms total)
T1872C 570:456 JLINK_WriteReg(R0, 0x00000400)  returns 0x00 (0000ms, 0482ms total)
T1872C 570:456 JLINK_WriteReg(R1, 0x00000100)  returns 0x00 (0000ms, 0482ms total)
T1872C 570:456 JLINK_WriteReg(R2, 0x1FFFF1AC)  returns 0x00 (0000ms, 0482ms total)
T1872C 570:456 JLINK_WriteReg(R3, 0x00000000)  returns 0x00 (0000ms, 0482ms total)
T1872C 570:456 JLINK_WriteReg(R4, 0x00000000)  returns 0x00 (0000ms, 0482ms total)
T1872C 570:456 JLINK_WriteReg(R5, 0x00000000)  returns 0x00 (0000ms, 0482ms total)
T1872C 570:456 JLINK_WriteReg(R6, 0x00000000)  returns 0x00 (0000ms, 0482ms total)
T1872C 570:456 JLINK_WriteReg(R7, 0x00000000)  returns 0x00 (0000ms, 0482ms total)
T1872C 570:456 JLINK_WriteReg(R8, 0x00000000)  returns 0x00 (0000ms, 0482ms total)
T1872C 570:456 JLINK_WriteReg(R9, 0x1FFFF1A8)  returns 0x00 (0000ms, 0482ms total)
T1872C 570:456 JLINK_WriteReg(R10, 0x00000000)  returns 0x00 (0000ms, 0482ms total)
T1872C 570:456 JLINK_WriteReg(R11, 0x00000000)  returns 0x00 (0000ms, 0482ms total)
T1872C 570:456 JLINK_WriteReg(R12, 0x00000000)  returns 0x00 (0000ms, 0482ms total)
T1872C 570:456 JLINK_WriteReg(R13 (SP), 0x20000000)  returns 0x00 (0000ms, 0482ms total)
T1872C 570:456 JLINK_WriteReg(R14, 0x1FFFF001)  returns 0x00 (0000ms, 0482ms total)
T1872C 570:456 JLINK_WriteReg(R15 (PC), 0x1FFFF118)  returns 0x00 (0000ms, 0482ms total)
T1872C 570:456 JLINK_WriteReg(XPSR, 0x01000000)  returns 0x00 (0000ms, 0482ms total)
T1872C 570:456 JLINK_WriteReg(MSP, 0x20000000)  returns 0x00 (0000ms, 0482ms total)
T1872C 570:456 JLINK_WriteReg(PSP, 0x20000000)  returns 0x00 (0000ms, 0482ms total)
T1872C 570:456 JLINK_WriteReg(CFBP, 0x00000000)  returns 0x00 (0000ms, 0482ms total)
T1872C 570:456 JLINK_SetBPEx(Addr = 0x1FFFF000, Type = 0xFFFFFFF2)  returns 0x00000009 (0000ms, 0482ms total)
T1872C 570:456 JLINK_Go() -- CPU_WriteMem(4 bytes @ 0xE0002000) -- CPU_ReadMem(4 bytes @ 0xE0001000) -- CPU_WriteMem(4 bytes @ 0xE0001000) (0002ms, 0484ms total)
T1872C 570:458 JLINK_IsHalted()  returns FALSE (0000ms, 0484ms total)
T1872C 570:467 JLINK_IsHalted()  returns FALSE (0000ms, 0484ms total)
T1872C 570:475 JLINK_IsHalted()  returns TRUE (0002ms, 0486ms total)
T1872C 570:477 JLINK_ReadReg(R15 (PC))  returns 0x1FFFF000 (0000ms, 0484ms total)
T1872C 570:477 JLINK_ClrBPEx(BPHandle = 0x00000009)  returns 0x00 (0000ms, 0484ms total)
T1872C 570:477 JLINK_ReadReg(R0)  returns 0x00000000 (0000ms, 0484ms total)
T1872C 570:478 JLINK_WriteMem(0x1FFFF1AC, 0x0100 Bytes, ...) - Data: E2 0F 10 43 6D 19 64 41 13 E0 E2 07 6D 08 15 43 ... -- CPU_WriteMem(256 bytes @ 0x1FFFF1AC)  returns 0x100 (0001ms, 0485ms total)
T1872C 570:479 JLINK_WriteReg(R0, 0x00000500)  returns 0x00 (0000ms, 0485ms total)
T1872C 570:479 JLINK_WriteReg(R1, 0x00000100)  returns 0x00 (0000ms, 0485ms total)
T1872C 570:479 JLINK_WriteReg(R2, 0x1FFFF1AC)  returns 0x00 (0000ms, 0485ms total)
T1872C 570:479 JLINK_WriteReg(R3, 0x00000000)  returns 0x00 (0000ms, 0485ms total)
T1872C 570:479 JLINK_WriteReg(R4, 0x00000000)  returns 0x00 (0000ms, 0485ms total)
T1872C 570:479 JLINK_WriteReg(R5, 0x00000000)  returns 0x00 (0000ms, 0485ms total)
T1872C 570:479 JLINK_WriteReg(R6, 0x00000000)  returns 0x00 (0000ms, 0485ms total)
T1872C 570:479 JLINK_WriteReg(R7, 0x00000000)  returns 0x00 (0000ms, 0485ms total)
T1872C 570:479 JLINK_WriteReg(R8, 0x00000000)  returns 0x00 (0000ms, 0485ms total)
T1872C 570:479 JLINK_WriteReg(R9, 0x1FFFF1A8)  returns 0x00 (0000ms, 0485ms total)
T1872C 570:479 JLINK_WriteReg(R10, 0x00000000)  returns 0x00 (0000ms, 0485ms total)
T1872C 570:479 JLINK_WriteReg(R11, 0x00000000)  returns 0x00 (0000ms, 0485ms total)
T1872C 570:479 JLINK_WriteReg(R12, 0x00000000)  returns 0x00 (0000ms, 0485ms total)
T1872C 570:479 JLINK_WriteReg(R13 (SP), 0x20000000)  returns 0x00 (0000ms, 0485ms total)
T1872C 570:479 JLINK_WriteReg(R14, 0x1FFFF001)  returns 0x00 (0000ms, 0485ms total)
T1872C 570:479 JLINK_WriteReg(R15 (PC), 0x1FFFF118)  returns 0x00 (0000ms, 0485ms total)
T1872C 570:479 JLINK_WriteReg(XPSR, 0x01000000)  returns 0x00 (0000ms, 0485ms total)
T1872C 570:479 JLINK_WriteReg(MSP, 0x20000000)  returns 0x00 (0000ms, 0485ms total)
T1872C 570:479 JLINK_WriteReg(PSP, 0x20000000)  returns 0x00 (0000ms, 0485ms total)
T1872C 570:479 JLINK_WriteReg(CFBP, 0x00000000)  returns 0x00 (0000ms, 0485ms total)
T1872C 570:479 JLINK_SetBPEx(Addr = 0x1FFFF000, Type = 0xFFFFFFF2)  returns 0x0000000A (0000ms, 0485ms total)
T1872C 570:479 JLINK_Go() -- CPU_WriteMem(4 bytes @ 0xE0002000) -- CPU_ReadMem(4 bytes @ 0xE0001000) -- CPU_WriteMem(4 bytes @ 0xE0001000) (0002ms, 0487ms total)
T1872C 570:481 JLINK_IsHalted()  returns FALSE (0000ms, 0487ms total)
T1872C 570:488 JLINK_IsHalted()  returns FALSE (0000ms, 0487ms total)
T1872C 570:495 JLINK_IsHalted()  returns TRUE (0001ms, 0488ms total)
T1872C 570:496 JLINK_ReadReg(R15 (PC))  returns 0x1FFFF000 (0000ms, 0487ms total)
T1872C 570:496 JLINK_ClrBPEx(BPHandle = 0x0000000A)  returns 0x00 (0000ms, 0487ms total)
T1872C 570:496 JLINK_ReadReg(R0)  returns 0x00000000 (0000ms, 0487ms total)
T1872C 570:497 JLINK_WriteMem(0x1FFFF1AC, 0x0100 Bytes, ...) - Data: 7D 43 00 27 AA 18 7C 41 49 1C 5B 1E 61 45 F2 DD ... -- CPU_WriteMem(256 bytes @ 0x1FFFF1AC)  returns 0x100 (0001ms, 0488ms total)
T1872C 570:498 JLINK_WriteReg(R0, 0x00000600)  returns 0x00 (0000ms, 0488ms total)
T1872C 570:498 JLINK_WriteReg(R1, 0x00000100)  returns 0x00 (0000ms, 0488ms total)
T1872C 570:498 JLINK_WriteReg(R2, 0x1FFFF1AC)  returns 0x00 (0000ms, 0488ms total)
T1872C 570:498 JLINK_WriteReg(R3, 0x00000000)  returns 0x00 (0000ms, 0488ms total)
T1872C 570:498 JLINK_WriteReg(R4, 0x00000000)  returns 0x00 (0000ms, 0488ms total)
T1872C 570:498 JLINK_WriteReg(R5, 0x00000000)  returns 0x00 (0000ms, 0488ms total)
T1872C 570:498 JLINK_WriteReg(R6, 0x00000000)  returns 0x00 (0000ms, 0488ms total)
T1872C 570:498 JLINK_WriteReg(R7, 0x00000000)  returns 0x00 (0000ms, 0488ms total)
T1872C 570:498 JLINK_WriteReg(R8, 0x00000000)  returns 0x00 (0000ms, 0488ms total)
T1872C 570:498 JLINK_WriteReg(R9, 0x1FFFF1A8)  returns 0x00 (0000ms, 0488ms total)
T1872C 570:498 JLINK_WriteReg(R10, 0x00000000)  returns 0x00 (0000ms, 0488ms total)
T1872C 570:498 JLINK_WriteReg(R11, 0x00000000)  returns 0x00 (0000ms, 0488ms total)
T1872C 570:498 JLINK_WriteReg(R12, 0x00000000)  returns 0x00 (0000ms, 0488ms total)
T1872C 570:498 JLINK_WriteReg(R13 (SP), 0x20000000)  returns 0x00 (0000ms, 0488ms total)
T1872C 570:498 JLINK_WriteReg(R14, 0x1FFFF001)  returns 0x00 (0000ms, 0488ms total)
T1872C 570:498 JLINK_WriteReg(R15 (PC), 0x1FFFF118)  returns 0x00 (0000ms, 0488ms total)
T1872C 570:498 JLINK_WriteReg(XPSR, 0x01000000)  returns 0x00 (0000ms, 0488ms total)
T1872C 570:498 JLINK_WriteReg(MSP, 0x20000000)  returns 0x00 (0001ms, 0489ms total)
T1872C 570:499 JLINK_WriteReg(PSP, 0x20000000)  returns 0x00 (0000ms, 0489ms total)
T1872C 570:499 JLINK_WriteReg(CFBP, 0x00000000)  returns 0x00 (0000ms, 0489ms total)
T1872C 570:499 JLINK_SetBPEx(Addr = 0x1FFFF000, Type = 0xFFFFFFF2)  returns 0x0000000B (0000ms, 0489ms total)
T1872C 570:499 JLINK_Go() -- CPU_WriteMem(4 bytes @ 0xE0002000) -- CPU_ReadMem(4 bytes @ 0xE0001000) -- CPU_WriteMem(4 bytes @ 0xE0001000) (0001ms, 0490ms total)
T1872C 570:500 JLINK_IsHalted()  returns FALSE (0000ms, 0490ms total)
T1872C 570:513 JLINK_IsHalted()  returns TRUE (0001ms, 0491ms total)
T1872C 570:514 JLINK_ReadReg(R15 (PC))  returns 0x1FFFF000 (0000ms, 0490ms total)
T1872C 570:514 JLINK_ClrBPEx(BPHandle = 0x0000000B)  returns 0x00 (0000ms, 0490ms total)
T1872C 570:514 JLINK_ReadReg(R0)  returns 0x00000000 (0000ms, 0490ms total)
T1872C 570:515 JLINK_WriteMem(0x1FFFF1AC, 0x0100 Bytes, ...) - Data: 80 18 00 F0 6F F8 10 BD 01 22 D2 07 00 28 00 DB ... -- CPU_WriteMem(256 bytes @ 0x1FFFF1AC)  returns 0x100 (0001ms, 0491ms total)
T1872C 570:516 JLINK_WriteReg(R0, 0x00000700)  returns 0x00 (0000ms, 0491ms total)
T1872C 570:516 JLINK_WriteReg(R1, 0x00000100)  returns 0x00 (0000ms, 0491ms total)
T1872C 570:516 JLINK_WriteReg(R2, 0x1FFFF1AC)  returns 0x00 (0000ms, 0491ms total)
T1872C 570:516 JLINK_WriteReg(R3, 0x00000000)  returns 0x00 (0000ms, 0491ms total)
T1872C 570:516 JLINK_WriteReg(R4, 0x00000000)  returns 0x00 (0000ms, 0491ms total)
T1872C 570:516 JLINK_WriteReg(R5, 0x00000000)  returns 0x00 (0000ms, 0491ms total)
T1872C 570:516 JLINK_WriteReg(R6, 0x00000000)  returns 0x00 (0000ms, 0491ms total)
T1872C 570:516 JLINK_WriteReg(R7, 0x00000000)  returns 0x00 (0000ms, 0491ms total)
T1872C 570:516 JLINK_WriteReg(R8, 0x00000000)  returns 0x00 (0000ms, 0491ms total)
T1872C 570:516 JLINK_WriteReg(R9, 0x1FFFF1A8)  returns 0x00 (0000ms, 0491ms total)
T1872C 570:516 JLINK_WriteReg(R10, 0x00000000)  returns 0x00 (0000ms, 0491ms total)
T1872C 570:516 JLINK_WriteReg(R11, 0x00000000)  returns 0x00 (0000ms, 0491ms total)
T1872C 570:516 JLINK_WriteReg(R12, 0x00000000)  returns 0x00 (0000ms, 0491ms total)
T1872C 570:516 JLINK_WriteReg(R13 (SP), 0x20000000)  returns 0x00 (0001ms, 0492ms total)
T1872C 570:517 JLINK_WriteReg(R14, 0x1FFFF001)  returns 0x00 (0000ms, 0492ms total)
T1872C 570:517 JLINK_WriteReg(R15 (PC), 0x1FFFF118)  returns 0x00 (0000ms, 0492ms total)
T1872C 570:517 JLINK_WriteReg(XPSR, 0x01000000)  returns 0x00 (0000ms, 0492ms total)
T1872C 570:517 JLINK_WriteReg(MSP, 0x20000000)  returns 0x00 (0000ms, 0492ms total)
T1872C 570:517 JLINK_WriteReg(PSP, 0x20000000)  returns 0x00 (0000ms, 0492ms total)
T1872C 570:517 JLINK_WriteReg(CFBP, 0x00000000)  returns 0x00 (0000ms, 0492ms total)
T1872C 570:517 JLINK_SetBPEx(Addr = 0x1FFFF000, Type = 0xFFFFFFF2)  returns 0x0000000C (0000ms, 0492ms total)
T1872C 570:517 JLINK_Go() -- CPU_WriteMem(4 bytes @ 0xE0002000) -- CPU_ReadMem(4 bytes @ 0xE0001000) -- CPU_WriteMem(4 bytes @ 0xE0001000) (0001ms, 0493ms total)
T1872C 570:518 JLINK_IsHalted()  returns FALSE (0001ms, 0494ms total)
T1872C 570:523 JLINK_IsHalted()  returns FALSE (0000ms, 0493ms total)
T1872C 570:528 JLINK_IsHalted()  returns FALSE (0000ms, 0493ms total)
T1872C 570:529 JLINK_IsHalted()  returns FALSE (0000ms, 0493ms total)
T1872C 570:532 JLINK_IsHalted()  returns TRUE (0002ms, 0495ms total)
T1872C 570:534 JLINK_ReadReg(R15 (PC))  returns 0x1FFFF000 (0000ms, 0493ms total)
T1872C 570:534 JLINK_ClrBPEx(BPHandle = 0x0000000C)  returns 0x00 (0000ms, 0493ms total)
T1872C 570:534 JLINK_ReadReg(R0)  returns 0x00000000 (0000ms, 0493ms total)
T1872C 570:535 JLINK_WriteMem(0x1FFFF1AC, 0x0100 Bytes, ...) - Data: 02 D1 00 29 21 D0 11 24 05 0E 01 D1 00 02 08 34 ... -- CPU_WriteMem(256 bytes @ 0x1FFFF1AC)  returns 0x100 (0001ms, 0494ms total)
T1872C 570:536 JLINK_WriteReg(R0, 0x00000800)  returns 0x00 (0000ms, 0494ms total)
T1872C 570:536 JLINK_WriteReg(R1, 0x00000100)  returns 0x00 (0000ms, 0494ms total)
T1872C 570:536 JLINK_WriteReg(R2, 0x1FFFF1AC)  returns 0x00 (0000ms, 0494ms total)
T1872C 570:536 JLINK_WriteReg(R3, 0x00000000)  returns 0x00 (0000ms, 0494ms total)
T1872C 570:536 JLINK_WriteReg(R4, 0x00000000)  returns 0x00 (0000ms, 0494ms total)
T1872C 570:536 JLINK_WriteReg(R5, 0x00000000)  returns 0x00 (0000ms, 0494ms total)
T1872C 570:536 JLINK_WriteReg(R6, 0x00000000)  returns 0x00 (0000ms, 0494ms total)
T1872C 570:536 JLINK_WriteReg(R7, 0x00000000)  returns 0x00 (0000ms, 0494ms total)
T1872C 570:536 JLINK_WriteReg(R8, 0x00000000)  returns 0x00 (0000ms, 0494ms total)
T1872C 570:536 JLINK_WriteReg(R9, 0x1FFFF1A8)  returns 0x00 (0000ms, 0494ms total)
T1872C 570:536 JLINK_WriteReg(R10, 0x00000000)  returns 0x00 (0000ms, 0494ms total)
T1872C 570:536 JLINK_WriteReg(R11, 0x00000000)  returns 0x00 (0000ms, 0494ms total)
T1872C 570:536 JLINK_WriteReg(R12, 0x00000000)  returns 0x00 (0000ms, 0494ms total)
T1872C 570:536 JLINK_WriteReg(R13 (SP), 0x20000000)  returns 0x00 (0000ms, 0494ms total)
T1872C 570:536 JLINK_WriteReg(R14, 0x1FFFF001)  returns 0x00 (0000ms, 0494ms total)
T1872C 570:536 JLINK_WriteReg(R15 (PC), 0x1FFFF118)  returns 0x00 (0000ms, 0494ms total)
T1872C 570:536 JLINK_WriteReg(XPSR, 0x01000000)  returns 0x00 (0000ms, 0494ms total)
T1872C 570:536 JLINK_WriteReg(MSP, 0x20000000)  returns 0x00 (0000ms, 0494ms total)
T1872C 570:536 JLINK_WriteReg(PSP, 0x20000000)  returns 0x00 (0000ms, 0494ms total)
T1872C 570:536 JLINK_WriteReg(CFBP, 0x00000000)  returns 0x00 (0000ms, 0494ms total)
T1872C 570:536 JLINK_SetBPEx(Addr = 0x1FFFF000, Type = 0xFFFFFFF2)  returns 0x0000000D (0000ms, 0494ms total)
T1872C 570:536 JLINK_Go() -- CPU_WriteMem(4 bytes @ 0xE0002000) -- CPU_ReadMem(4 bytes @ 0xE0001000) -- CPU_WriteMem(4 bytes @ 0xE0001000) (0002ms, 0496ms total)
T1872C 570:538 JLINK_IsHalted()  returns FALSE (0000ms, 0496ms total)
T1872C 570:551 JLINK_IsHalted()  returns TRUE (0001ms, 0497ms total)
T1872C 570:552 JLINK_ReadReg(R15 (PC))  returns 0x1FFFF000 (0000ms, 0496ms total)
T1872C 570:552 JLINK_ClrBPEx(BPHandle = 0x0000000D)  returns 0x00 (0000ms, 0496ms total)
T1872C 570:552 JLINK_ReadReg(R0)  returns 0x00000000 (0000ms, 0496ms total)
T1872C 570:553 JLINK_WriteMem(0x1FFFF1AC, 0x0100 Bytes, ...) - Data: 00 22 0C 43 FD 0A 0A 30 02 D5 00 20 01 46 E9 E7 ... -- CPU_WriteMem(256 bytes @ 0x1FFFF1AC)  returns 0x100 (0001ms, 0497ms total)
T1872C 570:554 JLINK_WriteReg(R0, 0x00000900)  returns 0x00 (0000ms, 0497ms total)
T1872C 570:554 JLINK_WriteReg(R1, 0x00000100)  returns 0x00 (0000ms, 0497ms total)
T1872C 570:554 JLINK_WriteReg(R2, 0x1FFFF1AC)  returns 0x00 (0000ms, 0497ms total)
T1872C 570:554 JLINK_WriteReg(R3, 0x00000000)  returns 0x00 (0000ms, 0497ms total)
T1872C 570:554 JLINK_WriteReg(R4, 0x00000000)  returns 0x00 (0000ms, 0497ms total)
T1872C 570:554 JLINK_WriteReg(R5, 0x00000000)  returns 0x00 (0001ms, 0498ms total)
T1872C 570:555 JLINK_WriteReg(R6, 0x00000000)  returns 0x00 (0000ms, 0498ms total)
T1872C 570:555 JLINK_WriteReg(R7, 0x00000000)  returns 0x00 (0000ms, 0498ms total)
T1872C 570:555 JLINK_WriteReg(R8, 0x00000000)  returns 0x00 (0000ms, 0498ms total)
T1872C 570:555 JLINK_WriteReg(R9, 0x1FFFF1A8)  returns 0x00 (0000ms, 0498ms total)
T1872C 570:555 JLINK_WriteReg(R10, 0x00000000)  returns 0x00 (0000ms, 0498ms total)
T1872C 570:555 JLINK_WriteReg(R11, 0x00000000)  returns 0x00 (0000ms, 0498ms total)
T1872C 570:555 JLINK_WriteReg(R12, 0x00000000)  returns 0x00 (0000ms, 0498ms total)
T1872C 570:555 JLINK_WriteReg(R13 (SP), 0x20000000)  returns 0x00 (0000ms, 0498ms total)
T1872C 570:555 JLINK_WriteReg(R14, 0x1FFFF001)  returns 0x00 (0000ms, 0498ms total)
T1872C 570:555 JLINK_WriteReg(R15 (PC), 0x1FFFF118)  returns 0x00 (0000ms, 0498ms total)
T1872C 570:555 JLINK_WriteReg(XPSR, 0x01000000)  returns 0x00 (0000ms, 0498ms total)
T1872C 570:555 JLINK_WriteReg(MSP, 0x20000000)  returns 0x00 (0000ms, 0498ms total)
T1872C 570:555 JLINK_WriteReg(PSP, 0x20000000)  returns 0x00 (0000ms, 0498ms total)
T1872C 570:555 JLINK_WriteReg(CFBP, 0x00000000)  returns 0x00 (0000ms, 0498ms total)
T1872C 570:555 JLINK_SetBPEx(Addr = 0x1FFFF000, Type = 0xFFFFFFF2)  returns 0x0000000E (0000ms, 0498ms total)
T1872C 570:555 JLINK_Go() -- CPU_WriteMem(4 bytes @ 0xE0002000) -- CPU_ReadMem(4 bytes @ 0xE0001000) -- CPU_WriteMem(4 bytes @ 0xE0001000) (0001ms, 0499ms total)
T1872C 570:556 JLINK_IsHalted()  returns FALSE (0001ms, 0500ms total)
T1872C 570:561 JLINK_IsHalted()  returns FALSE (0000ms, 0499ms total)
T1872C 570:564 JLINK_IsHalted()  returns FALSE (0000ms, 0499ms total)
T1872C 570:574 JLINK_IsHalted()  returns TRUE (0002ms, 0501ms total)
T1872C 570:576 JLINK_ReadReg(R15 (PC))  returns 0x1FFFF000 (0000ms, 0499ms total)
T1872C 570:576 JLINK_ClrBPEx(BPHandle = 0x0000000E)  returns 0x00 (0000ms, 0499ms total)
T1872C 570:576 JLINK_ReadReg(R0)  returns 0x00000000 (0000ms, 0499ms total)
T1872C 570:577 JLINK_WriteMem(0x1FFFF1AC, 0x0100 Bytes, ...) - Data: 02 9C 03 9D 00 19 69 41 FF F7 2D FF BF E7 00 00 ... -- CPU_WriteMem(256 bytes @ 0x1FFFF1AC)  returns 0x100 (0001ms, 0500ms total)
T1872C 570:578 JLINK_WriteReg(R0, 0x00000A00)  returns 0x00 (0000ms, 0500ms total)
T1872C 570:578 JLINK_WriteReg(R1, 0x00000100)  returns 0x00 (0000ms, 0500ms total)
T1872C 570:578 JLINK_WriteReg(R2, 0x1FFFF1AC)  returns 0x00 (0000ms, 0500ms total)
T1872C 570:578 JLINK_WriteReg(R3, 0x00000000)  returns 0x00 (0000ms, 0500ms total)
T1872C 570:578 JLINK_WriteReg(R4, 0x00000000)  returns 0x00 (0000ms, 0500ms total)
T1872C 570:578 JLINK_WriteReg(R5, 0x00000000)  returns 0x00 (0000ms, 0500ms total)
T1872C 570:578 JLINK_WriteReg(R6, 0x00000000)  returns 0x00 (0000ms, 0500ms total)
T1872C 570:578 JLINK_WriteReg(R7, 0x00000000)  returns 0x00 (0000ms, 0500ms total)
T1872C 570:578 JLINK_WriteReg(R8, 0x00000000)  returns 0x00 (0000ms, 0500ms total)
T1872C 570:578 JLINK_WriteReg(R9, 0x1FFFF1A8)  returns 0x00 (0000ms, 0500ms total)
T1872C 570:578 JLINK_WriteReg(R10, 0x00000000)  returns 0x00 (0000ms, 0500ms total)
T1872C 570:578 JLINK_WriteReg(R11, 0x00000000)  returns 0x00 (0000ms, 0500ms total)
T1872C 570:578 JLINK_WriteReg(R12, 0x00000000)  returns 0x00 (0000ms, 0500ms total)
T1872C 570:578 JLINK_WriteReg(R13 (SP), 0x20000000)  returns 0x00 (0000ms, 0500ms total)
T1872C 570:578 JLINK_WriteReg(R14, 0x1FFFF001)  returns 0x00 (0000ms, 0500ms total)
T1872C 570:578 JLINK_WriteReg(R15 (PC), 0x1FFFF118)  returns 0x00 (0000ms, 0500ms total)
T1872C 570:578 JLINK_WriteReg(XPSR, 0x01000000)  returns 0x00 (0000ms, 0500ms total)
T1872C 570:578 JLINK_WriteReg(MSP, 0x20000000)  returns 0x00 (0000ms, 0500ms total)
T1872C 570:578 JLINK_WriteReg(PSP, 0x20000000)  returns 0x00 (0000ms, 0500ms total)
T1872C 570:578 JLINK_WriteReg(CFBP, 0x00000000)  returns 0x00 (0000ms, 0500ms total)
T1872C 570:578 JLINK_SetBPEx(Addr = 0x1FFFF000, Type = 0xFFFFFFF2)  returns 0x0000000F (0000ms, 0500ms total)
T1872C 570:578 JLINK_Go() -- CPU_WriteMem(4 bytes @ 0xE0002000) -- CPU_ReadMem(4 bytes @ 0xE0001000) -- CPU_WriteMem(4 bytes @ 0xE0001000) (0002ms, 0502ms total)
T1872C 570:580 JLINK_IsHalted()  returns FALSE (0000ms, 0502ms total)
T1872C 570:586 JLINK_IsHalted()  returns FALSE (0000ms, 0502ms total)
T1872C 570:591 JLINK_IsHalted()  returns TRUE (0002ms, 0504ms total)
T1872C 570:593 JLINK_ReadReg(R15 (PC))  returns 0x1FFFF000 (0000ms, 0502ms total)
T1872C 570:593 JLINK_ClrBPEx(BPHandle = 0x0000000F)  returns 0x00 (0000ms, 0502ms total)
T1872C 570:593 JLINK_ReadReg(R0)  returns 0x00000000 (0000ms, 0502ms total)
T1872C 570:594 JLINK_WriteMem(0x1FFFF1AC, 0x0100 Bytes, ...) - Data: 06 4B 34 33 9A 42 03 DC 9A 1A FF F7 47 FE 10 BD ... -- CPU_WriteMem(256 bytes @ 0x1FFFF1AC)  returns 0x100 (0001ms, 0503ms total)
T1872C 570:595 JLINK_WriteReg(R0, 0x00000B00)  returns 0x00 (0000ms, 0503ms total)
T1872C 570:595 JLINK_WriteReg(R1, 0x00000100)  returns 0x00 (0000ms, 0503ms total)
T1872C 570:595 JLINK_WriteReg(R2, 0x1FFFF1AC)  returns 0x00 (0000ms, 0503ms total)
T1872C 570:595 JLINK_WriteReg(R3, 0x00000000)  returns 0x00 (0000ms, 0503ms total)
T1872C 570:595 JLINK_WriteReg(R4, 0x00000000)  returns 0x00 (0000ms, 0503ms total)
T1872C 570:595 JLINK_WriteReg(R5, 0x00000000)  returns 0x00 (0000ms, 0503ms total)
T1872C 570:595 JLINK_WriteReg(R6, 0x00000000)  returns 0x00 (0000ms, 0503ms total)
T1872C 570:595 JLINK_WriteReg(R7, 0x00000000)  returns 0x00 (0000ms, 0503ms total)
T1872C 570:595 JLINK_WriteReg(R8, 0x00000000)  returns 0x00 (0000ms, 0503ms total)
T1872C 570:595 JLINK_WriteReg(R9, 0x1FFFF1A8)  returns 0x00 (0000ms, 0503ms total)
T1872C 570:595 JLINK_WriteReg(R10, 0x00000000)  returns 0x00 (0000ms, 0503ms total)
T1872C 570:595 JLINK_WriteReg(R11, 0x00000000)  returns 0x00 (0000ms, 0503ms total)
T1872C 570:595 JLINK_WriteReg(R12, 0x00000000)  returns 0x00 (0000ms, 0503ms total)
T1872C 570:595 JLINK_WriteReg(R13 (SP), 0x20000000)  returns 0x00 (0000ms, 0503ms total)
T1872C 570:595 JLINK_WriteReg(R14, 0x1FFFF001)  returns 0x00 (0000ms, 0503ms total)
T1872C 570:595 JLINK_WriteReg(R15 (PC), 0x1FFFF118)  returns 0x00 (0000ms, 0503ms total)
T1872C 570:595 JLINK_WriteReg(XPSR, 0x01000000)  returns 0x00 (0000ms, 0503ms total)
T1872C 570:595 JLINK_WriteReg(MSP, 0x20000000)  returns 0x00 (0000ms, 0503ms total)
T1872C 570:595 JLINK_WriteReg(PSP, 0x20000000)  returns 0x00 (0000ms, 0503ms total)
T1872C 570:595 JLINK_WriteReg(CFBP, 0x00000000)  returns 0x00 (0000ms, 0503ms total)
T1872C 570:595 JLINK_SetBPEx(Addr = 0x1FFFF000, Type = 0xFFFFFFF2)  returns 0x00000010 (0000ms, 0503ms total)
T1872C 570:595 JLINK_Go() -- CPU_WriteMem(4 bytes @ 0xE0002000) -- CPU_ReadMem(4 bytes @ 0xE0001000) -- CPU_WriteMem(4 bytes @ 0xE0001000) (0002ms, 0505ms total)
T1872C 570:597 JLINK_IsHalted()  returns FALSE (0000ms, 0505ms total)
T1872C 570:602 JLINK_IsHalted()  returns FALSE (0000ms, 0505ms total)
T1872C 570:607 JLINK_IsHalted()  returns FALSE (0000ms, 0505ms total)
T1872C 570:613 JLINK_IsHalted()  returns TRUE (0001ms, 0506ms total)
T1872C 570:614 JLINK_ReadReg(R15 (PC))  returns 0x1FFFF000 (0000ms, 0505ms total)
T1872C 570:614 JLINK_ClrBPEx(BPHandle = 0x00000010)  returns 0x00 (0000ms, 0505ms total)
T1872C 570:614 JLINK_ReadReg(R0)  returns 0x00000000 (0000ms, 0505ms total)
T1872C 570:616 JLINK_WriteMem(0x1FFFF1AC, 0x0100 Bytes, ...) - Data: 2C 46 3D 46 AE 42 01 DD 2F 46 04 E0 A6 42 01 DD ... -- CPU_WriteMem(256 bytes @ 0x1FFFF1AC)  returns 0x100 (0001ms, 0506ms total)
T1872C 570:617 JLINK_WriteReg(R0, 0x00000C00)  returns 0x00 (0000ms, 0506ms total)
T1872C 570:617 JLINK_WriteReg(R1, 0x00000100)  returns 0x00 (0000ms, 0506ms total)
T1872C 570:617 JLINK_WriteReg(R2, 0x1FFFF1AC)  returns 0x00 (0000ms, 0506ms total)
T1872C 570:617 JLINK_WriteReg(R3, 0x00000000)  returns 0x00 (0000ms, 0506ms total)
T1872C 570:617 JLINK_WriteReg(R4, 0x00000000)  returns 0x00 (0000ms, 0506ms total)
T1872C 570:617 JLINK_WriteReg(R5, 0x00000000)  returns 0x00 (0000ms, 0506ms total)
T1872C 570:617 JLINK_WriteReg(R6, 0x00000000)  returns 0x00 (0000ms, 0506ms total)
T1872C 570:617 JLINK_WriteReg(R7, 0x00000000)  returns 0x00 (0000ms, 0506ms total)
T1872C 570:617 JLINK_WriteReg(R8, 0x00000000)  returns 0x00 (0000ms, 0506ms total)
T1872C 570:617 JLINK_WriteReg(R9, 0x1FFFF1A8)  returns 0x00 (0000ms, 0506ms total)
T1872C 570:617 JLINK_WriteReg(R10, 0x00000000)  returns 0x00 (0000ms, 0506ms total)
